Circuit: * C:\Users\Nathann\ClawdDrive\Documents\EPFL\MTBA4\Electronique\TP_SIM\TP_SIM.asc

Direct Newton iteration for .op point succeeded.
Semiconductor Device Operating Points:
                        --- Diodes ---
Name:      d2          d1
Model:      d           d
Id:      2.47e-04    2.47e-04
Vd:      6.19e-01    6.19e-01
Req:     1.05e+02    1.05e+02
CAP:     0.00e+00    0.00e+00

                        --- Bipolar Transistors ---
Name:       q13         q12         q11         q10         q9
Model:   bc337-25    bc337-25    bc337-25    bc337-25    bc337-25
Ib:       9.14e-07    9.14e-07    9.14e-07    9.14e-07    8.31e-06
Ic:       2.46e-04    2.53e-04    2.53e-04    2.53e-04    2.35e-03
Vbe:      5.73e-01    5.73e-01    5.73e-01    5.73e-01    6.30e-01
Vbc:      0.00e+00   -3.85e+00   -3.85e+00   -3.82e+00   -4.37e+00
Vce:      5.73e-01    4.43e+00    4.43e+00    4.39e+00    5.00e+00
BetaDC:   2.69e+02    2.77e+02    2.77e+02    2.77e+02    2.83e+02
Gm:       9.68e-03    9.94e-03    9.94e-03    9.94e-03    9.22e-02
Rpi:      2.82e+04    2.82e+04    2.82e+04    2.82e+04    3.08e+03
Rx:       5.94e+01    5.94e+01    5.94e+01    5.94e+01    5.58e+01
Ro:       5.75e+05    5.75e+05    5.75e+05    5.75e+05    6.19e+04
Cbe:      7.05e-11    7.07e-11    7.07e-11    7.07e-11    1.20e-10
Cbc:      6.17e-12    2.38e-12    2.38e-12    2.39e-12    2.28e-12
Cjs:      0.00e+00    0.00e+00    0.00e+00    0.00e+00    0.00e+00
BetaAC:   2.73e+02    2.80e+02    2.80e+02    2.80e+02    2.84e+02
Cbx:      7.39e-12    2.86e-12    2.86e-12    2.86e-12    2.73e-12
Ft:       1.83e+07    2.08e+07    2.08e+07    2.08e+07    1.18e+08

Name:       q6          q5          q4          q3          q2
Model:   bc337-25    bc337-25    bc327-25    bc327-25    bc327-25
Ib:       9.06e-07    9.09e-07   -6.16e-06   -7.26e-07   -8.02e-07
Ic:       2.52e-04    2.53e-04   -2.35e-03   -2.55e-04   -2.51e-04
Vbe:      5.72e-01    5.73e-01   -6.08e-01   -5.51e-01   -5.54e-01
Vbc:     -4.45e+00   -4.45e+00    4.39e+00    3.82e+00   -2.67e-03
Vce:      5.02e+00    5.02e+00   -5.00e+00   -4.37e+00   -5.51e-01
BetaDC:   2.78e+02    2.78e+02    3.82e+02    3.52e+02    3.13e+02
Gm:       9.89e-03    9.93e-03    9.11e-02    9.93e-03    9.76e-03
Rpi:      2.84e+04    2.83e+04    4.26e+03    3.69e+04    3.34e+04
Rx:       5.94e+01    5.94e+01    6.30e-01    7.78e-01    7.70e-01
Ro:       5.80e+05    5.78e+05    1.45e+04    1.32e+05    1.19e+05
Cbe:      7.06e-11    7.07e-11    1.52e-10    8.56e-11    8.57e-11
Cbc:      2.27e-12    2.27e-12    4.44e-12    4.71e-12    1.22e-11
Cjs:      0.00e+00    0.00e+00    0.00e+00    0.00e+00    0.00e+00
BetaAC:   2.81e+02    2.81e+02    3.88e+02    3.67e+02    3.26e+02
Cbx:      2.71e-12    2.72e-12    5.23e-12    5.55e-12    1.44e-11
Ft:       2.08e+07    2.09e+07    8.97e+07    1.65e+07    1.38e+07

Name:       q1
Model:   bc327-25
Ib:      -8.02e-07
Ic:      -2.51e-04
Vbe:     -5.54e-01
Vbc:      0.00e+00
Vce:     -5.54e-01
BetaDC:   3.13e+02
Gm:       9.76e-03
Rpi:      3.34e+04
Rx:       7.70e-01
Ro:       1.19e+05
Cbe:      8.57e-11
Cbc:      1.22e-11
Cjs:      0.00e+00
BetaAC:   3.26e+02
Cbx:      1.44e-11
Ft:       1.38e+07



Date: Thu Jun 01 12:36:09 2023
Total elapsed time: 0.214 seconds.

tnom = 27
temp = 27
method = trap
totiter = 9
traniter = 0
tranpoints = 0
accept = 0
rejected = 0
matrix size = 48
fillins = 42
solver = Normal
Matrix Compiler1: 6.29 KB object code size
Matrix Compiler2: 5.18 KB object code size
