Circuit: * C:\Users\Nathann\ClawdDrive\Documents\EPFL\MTBA4\Electronique\TP2\TP2.asc

WARNING: Node IN is floating.
WARNING: Node OUT is floating.

WARNING: Less than two connections to node OUT.  This node is used by C3.
Direct Newton iteration for .op point succeeded.
Semiconductor Device Operating Points:
                        --- Bipolar Transistors ---
Name:       q1
Model:   bc337-25
Ib:       3.51e-06
Ic:       9.81e-04
Vbe:      6.07e-01
Vbc:     -3.40e+00
Vce:      4.01e+00
BetaDC:   2.80e+02
Gm:       3.85e-02
Rpi:      7.31e+03
Rx:       5.80e+01
Ro:       1.47e+05
Cbe:      8.88e-11
Cbc:      2.49e-12
Cjs:      0.00e+00
BetaAC:   2.82e+02
Cbx:      2.98e-12
Ft:       6.50e+07



Date: Fri Mar 17 13:04:03 2023
Total elapsed time: 0.066 seconds.

tnom = 27
temp = 27
method = trap
totiter = 7
traniter = 0
tranpoints = 0
accept = 0
rejected = 0
matrix size = 10
fillins = 0
solver = Normal
Matrix Compiler1: 578 bytes object code size
Matrix Compiler2: 788 bytes object code size
